T3794 4712:641 SEGGER J-Link V6.40 Log File (0001ms, 3749ms total)
T3794 4712:641 DLL Compiled: Oct 26 2018 15:06:02 (0001ms, 3749ms total)
T3794 4712:641 Logging started @ 2019-03-05 14:20 (0001ms, 3749ms total)
T3794 4712:642 JLINK_SetWarnOutHandler(...) (0000ms, 3749ms total)
T3794 4712:642 JLINK_OpenEx(...)
Firmware: J-Link OB-SAM3U128 V1 compiled Jul 12 2018 12:17:48
Hardware: V1.00
S/N: 480056888
TELNET listener socket opened on port 19021WEBSRV 
Starting webserver (0014ms, 3763ms total)
T3794 4712:642 WEBSRV Webserver running on local port 19080 (0014ms, 3763ms total)
T3794 4712:642   returns O.K. (0014ms, 3763ms total)
T3794 4712:656 JLINK_GetEmuCaps()  returns 0xB9FA5A37 (0000ms, 3763ms total)
T3794 4712:657 JLINK_TIF_GetAvailable(...) (0000ms, 3763ms total)
T3794 4712:657 JLINK_SetErrorOutHandler(...) (0000ms, 3763ms total)
T3794 4712:657 JLINK_ExecCommand("ProjectFile = "C:\Users\ched\Desktop\Brandon\mind_assist\SDK 5.0.4\DA1458x_SDK_5.0.4\DA1458x_SDK\5.0.4\projects\target_apps\ble_examples\MindAssist\Keil_5\JLinkSettings.ini"", ...).   returns 0x00 (0002ms, 3765ms total)
T3794 4712:659 JLINK_ExecCommand("Device = ARMCM0", ...). Device "CORTEX-M0" selected.  returns 0x00 (0001ms, 3766ms total)
T3794 4712:660 JLINK_ExecCommand("DisableConnectionTimeout", ...).   returns 0x01 (0000ms, 3766ms total)
T3794 4712:660 JLINK_GetHardwareVersion()  returns 0x2710 (0000ms, 3766ms total)
T3794 4712:660 JLINK_GetDLLVersion()  returns 64000 (0001ms, 3767ms total)
T3794 4712:661 JLINK_GetFirmwareString(...) (0000ms, 3767ms total)
T3794 4712:661 JLINK_GetDLLVersion()  returns 64000 (0000ms, 3767ms total)
T3794 4712:661 JLINK_GetCompileDateTime() (0000ms, 3767ms total)
T3794 4712:661 JLINK_GetFirmwareString(...) (0000ms, 3767ms total)
T3794 4712:661 JLINK_GetHardwareVersion()  returns 0x2710 (0000ms, 3767ms total)
T3794 4712:661 JLINK_TIF_Select(JLINKARM_TIF_SWD)  returns 0x00 (0001ms, 3768ms total)
T3794 4712:662 JLINK_SetSpeed(5000) (0001ms, 3769ms total)
T3794 4712:663 JLINK_GetId() >0x10B TIF>Found SW-DP with ID 0x0BB11477 >0x0D TIF> >0x28 TIF> >0x0D TIF> >0x28 TIF> >0x0D TIF> >0x28 TIF> >0x0D TIF> >0x28 TIF> >0x0D TIF> >0x21 TIF> >0x0D TIF> >0x28 TIF>Scanning AP map to find all available APs >0x0D TIF> >0x28 TIF> >0x0D TIF> >0x21 TIF> >0x0D TIF> >0x21 TIF> >0x0D TIF> >0x28 TIF> >0x0D TIF> >0x21 TIF> >0x0D TIF> >0x21 TIF>AP[1]: Stopped AP scan as end of AP map has been reachedAP[0]: AHB-AP (IDR: 0x04770021)Iterating through AP map to find AHB-AP to use
 >0x42 TIF> >0x28 TIF> >0x0D TIF> >0x28 TIF> >0x0D TIF> >0x21 TIF> >0x0D TIF> >0x21 TIF> >0x42 TIF> >0x28 TIF> >0x0D TIF> >0x28 TIF> >0x0D TIF> >0x28 TIF> >0x0D TIF> >0x21 TIF> >0x0D TIF> >0x21 TIF>AP[0]: Core foundAP[0]: AHB-AP ROM base: 0xE00FF000 >0x0D TIF> >0x28 TIF> >0x0D TIF> >0x28 TIF> >0x0D TIF> >0x28 TIF> >0x0D TIF> >0x21 TIF> >0x0D TIF> >0x21 TIF>CPUID register: 0x410CC200. Implementer code: 0x41 (ARM)Found Cortex-M0 r0p0, Little endian. -- Max. mem block: 0x00006040
 -- CPU_ReadMem(4 bytes @ 0xE000EDF0) -- CPU_WriteMem(4 bytes @ 0xE000EDF0) -- CPU_ReadMem(4 bytes @ 0xE0002000)FPUnit: 4 code (BP) slots and 0 literal slots -- CPU_ReadMem(4 bytes @ 0xE000EDFC) -- CPU_WriteMem(4 bytes @ 0xE000EDFC) -- CPU_ReadMem(4 bytes @ 0xE0001000) -- CPU_WriteMem(4 bytes @ 0xE0001000)CoreSight components:ROMTbl[0] @ E00FF000 -- CPU_ReadMem(16 bytes @ 0xE00FF000) -- CPU_ReadMem(16 bytes @ 0xE000EFF0) -- CPU_ReadMem(16 bytes @ 0xE000EFE0)
ROMTbl[0][0]: E000E000, CID: B105E00D, PID: 000BB008 SCS -- CPU_ReadMem(16 bytes @ 0xE0001FF0) -- CPU_ReadMem(16 bytes @ 0xE0001FE0)ROMTbl[0][1]: E0001000, CID: B105E00D, PID: 000BB00A DWT -- CPU_ReadMem(16 bytes @ 0xE0002FF0) -- CPU_ReadMem(16 bytes @ 0xE0002FE0)ROMTbl[0][2]: E0002000, CID: B105E00D, PID: 000BB00B FPB >0x0D TIF> >0x21 TIF>  returns 0x0BB11477 (0145ms, 3914ms total)
T3794 4712:809 JLINK_GetDLLVersion()  returns 64000 (0000ms, 3914ms total)
T3794 4712:809 JLINK_CORE_GetFound()  returns 0x60000FF (0000ms, 3914ms total)
T3794 4712:809 JLINK_GetDebugInfo(0x100 = JLINKARM_ROM_TABLE_ADDR_INDEX) -- Value=0xE00FF000  returns 0x00 (0000ms, 3914ms total)
T3794 4712:809 JLINK_GetDebugInfo(0x100 = JLINKARM_ROM_TABLE_ADDR_INDEX) -- Value=0xE00FF000  returns 0x00 (0000ms, 3914ms total)
T3794 4712:809 JLINK_GetDebugInfo(0x101 = JLINKARM_DEBUG_INFO_ETM_ADDR_INDEX) -- Value=0x00000000  returns 0x00 (0000ms, 3914ms total)
T3794 4712:809 JLINK_ReadMemEx(0xE0041FF0, 0x0010 Bytes, ..., Flags = 0x02000004) -- CPU_ReadMem(16 bytes @ 0xE0041FF0) - Data: 00 00 00 00 00 00 00 00 00 00 00 00 00 00 00 00  returns 0x10 (0001ms, 3915ms total)
T3794 4712:811 JLINK_GetDebugInfo(0x102 = JLINKARM_DEBUG_INFO_MTB_ADDR_INDEX) -- Value=0x00000000  returns 0x00 (0000ms, 3916ms total)
T3794 4712:811 JLINK_GetDebugInfo(0x103 = JLINKARM_DEBUG_INFO_TPIU_ADDR_INDEX) -- Value=0x00000000  returns 0x00 (0000ms, 3916ms total)
T3794 4712:811 JLINK_ReadMemEx(0xE0040FF0, 0x0010 Bytes, ..., Flags = 0x02000004) -- CPU_ReadMem(16 bytes @ 0xE0040FF0) - Data: 00 00 00 00 00 00 00 00 00 00 00 00 00 00 00 00  returns 0x10 (0001ms, 3917ms total)
T3794 4712:812 JLINK_GetDebugInfo(0x104 = JLINKARM_DEBUG_INFO_ITM_ADDR_INDEX) -- Value=0xE0000000  returns 0x00 (0000ms, 3917ms total)
T3794 4712:812 JLINK_GetDebugInfo(0x105 = JLINKARM_DEBUG_INFO_DWT_ADDR_INDEX) -- Value=0xE0001000  returns 0x00 (0000ms, 3917ms total)
T3794 4712:812 JLINK_GetDebugInfo(0x106 = JLINKARM_DEBUG_INFO_FPB_ADDR_INDEX) -- Value=0xE0002000  returns 0x00 (0000ms, 3917ms total)
T3794 4712:812 JLINK_GetDebugInfo(0x107 = JLINKARM_DEBUG_INFO_NVIC_ADDR_INDEX) -- Value=0xE000E000  returns 0x00 (0001ms, 3918ms total)
T3794 4712:813 JLINK_GetDebugInfo(0x10C = JLINKARM_DEBUG_INFO_DBG_ADDR_INDEX) -- Value=0xE000EDF0  returns 0x00 (0000ms, 3918ms total)
T3794 4712:813 JLINK_GetDebugInfo(0x01 = Unknown) -- Value=0x00000000  returns 0x00 (0000ms, 3918ms total)
T3794 4712:813 JLINK_ReadMemU32(0xE000ED00, 0x0001 Items, ...) -- CPU_ReadMem(4 bytes @ 0xE000ED00) - Data: 00 C2 0C 41  returns 1 (0001ms, 3919ms total)
T3794 4712:814 JLINK_GetDebugInfo(0x10F = JLINKARM_DEBUG_INFO_HAS_CORTEX_M_SECURITY_EXT_INDEX) -- Value=0x00000000  returns 0x00 (0000ms, 3919ms total)
T3794 4712:814 JLINK_SetResetType(JLINKARM_CM3_RESET_TYPE_NORMAL)  returns JLINKARM_CM3_RESET_TYPE_NORMAL (0000ms, 3919ms total)
T3794 4712:814 JLINK_Reset() -- CPU is running -- CPU_WriteMem(4 bytes @ 0xE000EDF0) -- CPU is running -- CPU_WriteMem(4 bytes @ 0xE000EDFC)Reset: Halt core after reset via DEMCR.VC_CORERESET. >0x35 TIF>Reset: Reset device via AIRCR.SYSRESETREQ. -- CPU is running -- CPU_WriteMem(4 bytes @ 0xE000ED0C) >0x0D TIF> >0x28 TIF> -- CPU_ReadMem(4 bytes @ 0xE000EDF0) -- CPU_ReadMem(4 bytes @ 0xE000EDF0) -- CPU is running -- CPU_WriteMem(4 bytes @ 0xE000EDF0) -- CPU is running -- CPU_WriteMem(4 bytes @ 0xE000EDFC)
 -- CPU_ReadMem(4 bytes @ 0xE000EDF0) -- CPU_WriteMem(4 bytes @ 0xE0002000) -- CPU_ReadMem(4 bytes @ 0xE000EDFC) -- CPU_ReadMem(4 bytes @ 0xE0001000) -- CPU_WriteMem(4 bytes @ 0xE0001000) (0075ms, 3994ms total)
T3794 4712:889 JLINK_ReadReg(R15 (PC))  returns 0x000000C0 (0000ms, 3994ms total)
T3794 4712:889 JLINK_ReadReg(XPSR)  returns 0xC1000000 (0000ms, 3994ms total)
T3794 4712:889 JLINK_Halt()  returns 0x00 (0000ms, 3994ms total)
T3794 4712:889 JLINK_ReadMemU32(0xE000EDF0, 0x0001 Items, ...) -- CPU_ReadMem(4 bytes @ 0xE000EDF0) - Data: 03 00 03 00  returns 1 (0001ms, 3995ms total)
T3794 4712:890 JLINK_WriteU32(0xE000EDF0, 0xA05F0003) -- CPU_WriteMem(4 bytes @ 0xE000EDF0)  returns 0 (0001ms, 3996ms total)
T3794 4712:891 JLINK_WriteU32(0xE000EDFC, 0x01000000) -- CPU_WriteMem(4 bytes @ 0xE000EDFC)  returns 0 (0002ms, 3998ms total)
T3794 4712:893 JLINK_GetHWStatus(...)  returns 0x00 (0000ms, 3998ms total)
T3794 4712:893 JLINK_GetNumBPUnits(Type = 0xFFFFFF00)  returns 0x04 (0000ms, 3998ms total)
T3794 4712:893 JLINK_GetNumBPUnits(Type = 0xF0)  returns 0x2000 (0000ms, 3998ms total)
T3794 4712:893 JLINK_GetNumWPUnits()  returns 0x02 (0000ms, 3998ms total)
T3794 4712:893 JLINK_GetSpeed()  returns 0xA6B (0000ms, 3998ms total)
T3794 4712:893 JLINK_ReadMemU32(0xE000E004, 0x0001 Items, ...) -- CPU_ReadMem(4 bytes @ 0xE000E004) - Data: 00 00 00 00  returns 1 (0001ms, 3999ms total)
T3794 4712:894 JLINK_ReadReg(R15 (PC))  returns 0x000000C0 (0000ms, 3999ms total)
T3794 4712:894 JLINK_ReadReg(XPSR)  returns 0xC1000000 (0000ms, 3999ms total)
T3794 4714:114 JLINK_ReadReg(R0)  returns 0xFFFFFFFF (0001ms, 4000ms total)
T3794 4714:115 JLINK_ReadReg(R1)  returns 0xFFFFFFFF (0000ms, 4000ms total)
T3794 4714:115 JLINK_ReadReg(R2)  returns 0xFFFFFFFF (0000ms, 4000ms total)
T3794 4714:115 JLINK_ReadReg(R3)  returns 0xFFFFFFFF (0000ms, 4000ms total)
T3794 4714:115 JLINK_ReadReg(R4)  returns 0xFFFFFFFF (0000ms, 4000ms total)
T3794 4714:115 JLINK_ReadReg(R5)  returns 0xFFFFFFFF (0000ms, 4000ms total)
T3794 4714:115 JLINK_ReadReg(R6)  returns 0xFFFFFFFF (0000ms, 4000ms total)
T3794 4714:115 JLINK_ReadReg(R7)  returns 0xFFFFFFFF (0000ms, 4000ms total)
T3794 4714:115 JLINK_ReadReg(R8)  returns 0xFFFFFFFF (0000ms, 4000ms total)
T3794 4714:115 JLINK_ReadReg(R9)  returns 0xFFFFFFFF (0000ms, 4000ms total)
T3794 4714:115 JLINK_ReadReg(R10)  returns 0xFFFFFFFF (0000ms, 4000ms total)
T3794 4714:115 JLINK_ReadReg(R11)  returns 0xFFFFFFFF (0000ms, 4000ms total)
T3794 4714:115 JLINK_ReadReg(R12)  returns 0xFFFFFFFF (0000ms, 4000ms total)
T3794 4714:115 JLINK_ReadReg(R13 (SP))  returns 0x200097E0 (0000ms, 4000ms total)
T3794 4714:115 JLINK_ReadReg(R14)  returns 0xFFFFFFFF (0000ms, 4000ms total)
T3794 4714:115 JLINK_ReadReg(R15 (PC))  returns 0x000000C0 (0000ms, 4000ms total)
T3794 4714:115 JLINK_ReadReg(XPSR)  returns 0xC1000000 (0000ms, 4000ms total)
T3794 4714:115 JLINK_ReadReg(MSP)  returns 0x200097E0 (0000ms, 4000ms total)
T3794 4714:115 JLINK_ReadReg(PSP)  returns 0xFFFFFFFC (0000ms, 4000ms total)
T3794 4714:115 JLINK_ReadReg(CFBP)  returns 0x00000000 (0000ms, 4000ms total)
T3794 4714:115 JLINK_WriteMemEx(0x50000012, 0x0004 Bytes, ..., Flags = 0x02000000) - Data: A4 80 00 00 -- CPU_WriteMem(4 bytes @ 0x50000012)  returns 0xFFFFFFFF (0001ms, 4001ms total)
T3794 4714:117 JLINK_WriteMemEx(0xE000EDF0, 0x0004 Bytes, ..., Flags = 0x02000000) - Data: 03 00 5F A0 -- CPU_WriteMem(4 bytes @ 0xE000EDF0)  returns 0xFFFFFFFF (0001ms, 4002ms total)
T3794 4715:118 JLINK_SetResetType(JLINKARM_CM3_RESET_TYPE_NORMAL)  returns JLINKARM_CM3_RESET_TYPE_NORMAL (0000ms, 4002ms total)
T3794 4715:118 JLINK_Reset() -- CPU_WriteMem(4 bytes @ 0xE000EDF0) -- CPU_WriteMem(4 bytes @ 0xE000EDFC)Reset: Halt core after reset via DEMCR.VC_CORERESET. >0x35 TIF>Reset: Reset device via AIRCR.SYSRESETREQ. -- CPU_WriteMem(4 bytes @ 0xE000ED0C) >0x0D TIF> >0x28 TIF> -- CPU_ReadMem(4 bytes @ 0xE000EDF0) -- CPU_ReadMem(4 bytes @ 0xE000EDF0) -- CPU_WriteMem(4 bytes @ 0xE000EDF0) -- CPU_WriteMem(4 bytes @ 0xE000EDFC) -- CPU_ReadMem(4 bytes @ 0xE000EDF0) -- CPU_WriteMem(4 bytes @ 0xE0002000)
 -- CPU_ReadMem(4 bytes @ 0xE000EDFC) -- CPU_ReadMem(4 bytes @ 0xE0001000) -- CPU_WriteMem(4 bytes @ 0xE0001000) (0079ms, 4081ms total)
T3794 4715:197 JLINK_ReadReg(R15 (PC))  returns 0x000000C0 (0000ms, 4081ms total)
T3794 4715:197 JLINK_ReadReg(XPSR)  returns 0xC1000000 (0000ms, 4081ms total)
T3794 4715:197 JLINK_ReadReg(R0)  returns 0xFFFFFFFF (0000ms, 4081ms total)
T3794 4715:197 JLINK_ReadReg(R1)  returns 0xFFFFFFFF (0000ms, 4081ms total)
T3794 4715:197 JLINK_ReadReg(R2)  returns 0xFFFFFFFF (0000ms, 4081ms total)
T3794 4715:197 JLINK_ReadReg(R3)  returns 0xFFFFFFFF (0000ms, 4081ms total)
T3794 4715:197 JLINK_ReadReg(R4)  returns 0xFFFFFFFF (0000ms, 4081ms total)
T3794 4715:197 JLINK_ReadReg(R5)  returns 0xFFFFFFFF (0000ms, 4081ms total)
T3794 4715:197 JLINK_ReadReg(R6)  returns 0xFFFFFFFF (0000ms, 4081ms total)
T3794 4715:197 JLINK_ReadReg(R7)  returns 0xFFFFFFFF (0000ms, 4081ms total)
T3794 4715:197 JLINK_ReadReg(R8)  returns 0xFFFFFFFF (0000ms, 4081ms total)
T3794 4715:197 JLINK_ReadReg(R9)  returns 0xFFFFFFFF (0000ms, 4081ms total)
T3794 4715:197 JLINK_ReadReg(R10)  returns 0xFFFFFFFF (0000ms, 4081ms total)
T3794 4715:197 JLINK_ReadReg(R11)  returns 0xFFFFFFFF (0000ms, 4081ms total)
T3794 4715:197 JLINK_ReadReg(R12)  returns 0xFFFFFFFF (0000ms, 4081ms total)
T3794 4715:197 JLINK_ReadReg(R13 (SP))  returns 0x200097E0 (0000ms, 4081ms total)
T3794 4715:197 JLINK_ReadReg(R14)  returns 0xFFFFFFFF (0000ms, 4081ms total)
T3794 4715:197 JLINK_ReadReg(R15 (PC))  returns 0x000000C0 (0000ms, 4081ms total)
T3794 4715:197 JLINK_ReadReg(XPSR)  returns 0xC1000000 (0000ms, 4081ms total)
T3794 4715:197 JLINK_ReadReg(MSP)  returns 0x200097E0 (0000ms, 4081ms total)
T3794 4715:197 JLINK_ReadReg(PSP)  returns 0xFFFFFFFC (0000ms, 4081ms total)
T3794 4715:197 JLINK_ReadReg(CFBP)  returns 0x00000000 (0000ms, 4081ms total)
T3794 4715:200 JLINK_ReadMemEx(0x000000C0, 0x003C Bytes, ..., Flags = 0x02000000) -- CPU_ReadMem(60 bytes @ 0x000000C0) - Data: 00 20 01 1C 02 1C 03 1C 04 1C 05 1C 06 1C 07 1C ...  returns 0x3C (0002ms, 4083ms total)
T3794 4715:275 JLINK_WriteMemEx(0x20000000, 0x00A0 Bytes, ..., Flags = 0x02000000) - Data: 00 98 00 20 A5 04 00 20 AD 04 00 20 C5 04 00 20 ... -- CPU_WriteMem(160 bytes @ 0x20000000)  returns 0xA0 (0002ms, 4085ms total)
T3794 4715:279 JLINK_WriteMemEx(0x20000160, 0x0160 Bytes, ..., Flags = 0x02000000) - Data: 32 00 00 00 CD 06 00 20 23 24 00 20 E1 2C 00 20 ... -- CPU_WriteMem(352 bytes @ 0x20000160)  returns 0x160 (0002ms, 4087ms total)
T3794 4715:282 JLINK_WriteMemEx(0x200002C0, 0x0064 Bytes, ..., Flags = 0x02000000) - Data: 50 46 00 03 00 03 98 3A 64 00 F4 01 B8 0B 00 0C ... -- CPU_WriteMem(100 bytes @ 0x200002C0)  returns 0x64 (0001ms, 4088ms total)
T3794 4715:284 JLINK_WriteMemEx(0x20000340, 0x00A4 Bytes, ..., Flags = 0x02000000) - Data: FF FF 01 00 00 C2 01 00 00 00 00 00 00 00 00 00 ... -- CPU_WriteMem(164 bytes @ 0x20000340)  returns 0xA4 (0002ms, 4090ms total)
T3794 4715:286 JLINK_WriteMemEx(0x20000440, 0x1000 Bytes, ..., Flags = 0x02000000) - Data: 03 48 85 46 03 F0 44 FA 00 48 00 47 C7 20 02 00 ... -- CPU_WriteMem(4096 bytes @ 0x20000440)  returns 0x1000 (0024ms, 4114ms total)
T3794 4715:311 JLINK_WriteMemEx(0x20001440, 0x1000 Bytes, ..., Flags = 0x02000000) - Data: C7 73 35 E0 08 46 02 F0 ED FB 68 70 30 E0 80 59 ... -- CPU_WriteMem(4096 bytes @ 0x20001440)  returns 0x1000 (0024ms, 4138ms total)
T3794 4715:336 JLINK_WriteMemEx(0x20002440, 0x1000 Bytes, ..., Flags = 0x02000000) - Data: 42 60 5C 4A C2 61 3C 4A 3A 48 00 21 10 60 3A 48 ... -- CPU_WriteMem(4096 bytes @ 0x20002440)  returns 0x1000 (0025ms, 4163ms total)
T3794 4715:362 JLINK_WriteMemEx(0x20003440, 0x1000 Bytes, ..., Flags = 0x02000000) - Data: 90 02 00 E0 05 E0 00 F0 15 FB 31 78 01 70 00 F0 ... -- CPU_WriteMem(4096 bytes @ 0x20003440)  returns 0x1000 (0024ms, 4187ms total)
T3794 4715:389 JLINK_WriteMemEx(0x20004440, 0x0068 Bytes, ..., Flags = 0x02000000) - Data: AD 34 00 20 3C 44 00 20 01 00 00 00 01 70 00 00 ... -- CPU_WriteMem(104 bytes @ 0x20004440)  returns 0x68 (0001ms, 4188ms total)
T3794 4715:447 JLINK_SetResetType(JLINKARM_CM3_RESET_TYPE_NORMAL)  returns JLINKARM_CM3_RESET_TYPE_NORMAL (0001ms, 4189ms total)
T3794 4715:448 JLINK_Reset() -- CPU_ReadMem(4 bytes @ 0x20004440) -- CPU_WriteMem(4 bytes @ 0x20004440) -- CPU_WriteMem(4 bytes @ 0xE000EDF0) -- CPU_WriteMem(4 bytes @ 0xE000EDFC)Reset: Halt core after reset via DEMCR.VC_CORERESET. >0x35 TIF>Reset: Reset device via AIRCR.SYSRESETREQ. -- CPU_WriteMem(4 bytes @ 0xE000ED0C) >0x0D TIF> >0x28 TIF> -- CPU_ReadMem(4 bytes @ 0xE000EDF0) -- CPU_ReadMem(4 bytes @ 0xE000EDF0) -- CPU_WriteMem(4 bytes @ 0xE000EDF0) -- CPU_WriteMem(4 bytes @ 0xE000EDFC)
 -- CPU_ReadMem(4 bytes @ 0xE000EDF0) -- CPU_WriteMem(4 bytes @ 0xE0002000) -- CPU_ReadMem(4 bytes @ 0xE000EDFC) -- CPU_ReadMem(4 bytes @ 0xE0001000) -- CPU_WriteMem(4 bytes @ 0xE0001000) (0078ms, 4267ms total)
T3794 4715:526 JLINK_ReadReg(R15 (PC))  returns 0x000000C0 (0000ms, 4267ms total)
T3794 4715:526 JLINK_ReadReg(XPSR)  returns 0xC1000000 (0000ms, 4267ms total)
T3794 4715:526 JLINK_ReadReg(R0)  returns 0xFFFFFFFF (0000ms, 4267ms total)
T3794 4715:526 JLINK_ReadReg(R1)  returns 0xFFFFFFFF (0000ms, 4267ms total)
T3794 4715:526 JLINK_ReadReg(R2)  returns 0xFFFFFFFF (0000ms, 4267ms total)
T3794 4715:526 JLINK_ReadReg(R3)  returns 0xFFFFFFFF (0000ms, 4267ms total)
T3794 4715:526 JLINK_ReadReg(R4)  returns 0xFFFFFFFF (0001ms, 4268ms total)
T3794 4715:527 JLINK_ReadReg(R5)  returns 0xFFFFFFFF (0000ms, 4268ms total)
T3794 4715:527 JLINK_ReadReg(R6)  returns 0xFFFFFFFF (0000ms, 4268ms total)
T3794 4715:527 JLINK_ReadReg(R7)  returns 0xFFFFFFFF (0000ms, 4268ms total)
T3794 4715:527 JLINK_ReadReg(R8)  returns 0xFFFFFFFF (0000ms, 4268ms total)
T3794 4715:527 JLINK_ReadReg(R9)  returns 0xFFFFFFFF (0000ms, 4268ms total)
T3794 4715:527 JLINK_ReadReg(R10)  returns 0xFFFFFFFF (0000ms, 4268ms total)
T3794 4715:527 JLINK_ReadReg(R11)  returns 0xFFFFFFFF (0000ms, 4268ms total)
T3794 4715:527 JLINK_ReadReg(R12)  returns 0xFFFFFFFF (0000ms, 4268ms total)
T3794 4715:527 JLINK_ReadReg(R13 (SP))  returns 0x200097E0 (0000ms, 4268ms total)
T3794 4715:527 JLINK_ReadReg(R14)  returns 0xFFFFFFFF (0000ms, 4268ms total)
T3794 4715:527 JLINK_ReadReg(R15 (PC))  returns 0x000000C0 (0000ms, 4268ms total)
T3794 4715:527 JLINK_ReadReg(XPSR)  returns 0xC1000000 (0000ms, 4268ms total)
T3794 4715:527 JLINK_ReadReg(MSP)  returns 0x200097E0 (0000ms, 4268ms total)
T3794 4715:527 JLINK_ReadReg(PSP)  returns 0xFFFFFFFC (0001ms, 4269ms total)
T3794 4715:528 JLINK_ReadReg(CFBP)  returns 0x00000000 (0000ms, 4269ms total)
T3794 4715:556 JLINK_ReadMemEx(0x20000000, 0x0004 Bytes, ..., Flags = 0x02000000) -- CPU_ReadMem(4 bytes @ 0x20000000) - Data: 00 98 00 20  returns 0x04 (0001ms, 4270ms total)
T3794 4715:557 JLINK_WriteReg(R13 (SP), 0x20009800)  returns 0x00 (0000ms, 4270ms total)
T3794 4715:557 JLINK_ReadReg(R0)  returns 0xFFFFFFFF (0000ms, 4270ms total)
T3794 4715:557 JLINK_ReadReg(R1)  returns 0xFFFFFFFF (0000ms, 4270ms total)
T3794 4715:557 JLINK_ReadReg(R2)  returns 0xFFFFFFFF (0000ms, 4270ms total)
T3794 4715:557 JLINK_ReadReg(R3)  returns 0xFFFFFFFF (0000ms, 4270ms total)
T3794 4715:557 JLINK_ReadReg(R4)  returns 0xFFFFFFFF (0000ms, 4270ms total)
T3794 4715:557 JLINK_ReadReg(R5)  returns 0xFFFFFFFF (0000ms, 4270ms total)
T3794 4715:557 JLINK_ReadReg(R6)  returns 0xFFFFFFFF (0000ms, 4270ms total)
T3794 4715:557 JLINK_ReadReg(R7)  returns 0xFFFFFFFF (0000ms, 4270ms total)
T3794 4715:557 JLINK_ReadReg(R8)  returns 0xFFFFFFFF (0000ms, 4270ms total)
T3794 4715:557 JLINK_ReadReg(R9)  returns 0xFFFFFFFF (0000ms, 4270ms total)
T3794 4715:557 JLINK_ReadReg(R10)  returns 0xFFFFFFFF (0000ms, 4270ms total)
T3794 4715:557 JLINK_ReadReg(R11)  returns 0xFFFFFFFF (0000ms, 4270ms total)
T3794 4715:557 JLINK_ReadReg(R12)  returns 0xFFFFFFFF (0000ms, 4270ms total)
T3794 4715:557 JLINK_ReadReg(R13 (SP))  returns 0x20009800 (0000ms, 4270ms total)
T3794 4715:557 JLINK_ReadReg(R14)  returns 0xFFFFFFFF (0000ms, 4270ms total)
T3794 4715:557 JLINK_ReadReg(R15 (PC))  returns 0x000000C0 (0000ms, 4270ms total)
T3794 4715:557 JLINK_ReadReg(XPSR)  returns 0xC1000000 (0000ms, 4270ms total)
T3794 4715:557 JLINK_ReadReg(MSP)  returns 0x20009800 (0000ms, 4270ms total)
T3794 4715:557 JLINK_ReadReg(PSP)  returns 0xFFFFFFFC (0000ms, 4270ms total)
T3794 4715:557 JLINK_ReadReg(CFBP)  returns 0x00000000 (0001ms, 4271ms total)
T3794 4715:558 JLINK_ReadMemEx(0x20000004, 0x0004 Bytes, ..., Flags = 0x02000000) -- CPU_ReadMem(4 bytes @ 0x20000004) - Data: A5 04 00 20  returns 0x04 (0002ms, 4273ms total)
T3794 4715:560 JLINK_WriteReg(R15 (PC), 0x200004A4)  returns 0x00 (0000ms, 4273ms total)
T3794 4715:560 JLINK_ReadReg(R0)  returns 0xFFFFFFFF (0000ms, 4273ms total)
T3794 4715:560 JLINK_ReadReg(R1)  returns 0xFFFFFFFF (0000ms, 4273ms total)
T3794 4715:560 JLINK_ReadReg(R2)  returns 0xFFFFFFFF (0000ms, 4273ms total)
T3794 4715:560 JLINK_ReadReg(R3)  returns 0xFFFFFFFF (0000ms, 4273ms total)
T3794 4715:560 JLINK_ReadReg(R4)  returns 0xFFFFFFFF (0000ms, 4273ms total)
T3794 4715:560 JLINK_ReadReg(R5)  returns 0xFFFFFFFF (0000ms, 4273ms total)
T3794 4715:560 JLINK_ReadReg(R6)  returns 0xFFFFFFFF (0000ms, 4273ms total)
T3794 4715:560 JLINK_ReadReg(R7)  returns 0xFFFFFFFF (0000ms, 4273ms total)
T3794 4715:560 JLINK_ReadReg(R8)  returns 0xFFFFFFFF (0000ms, 4273ms total)
T3794 4715:560 JLINK_ReadReg(R9)  returns 0xFFFFFFFF (0000ms, 4273ms total)
T3794 4715:560 JLINK_ReadReg(R10)  returns 0xFFFFFFFF (0000ms, 4273ms total)
T3794 4715:560 JLINK_ReadReg(R11)  returns 0xFFFFFFFF (0000ms, 4273ms total)
T3794 4715:560 JLINK_ReadReg(R12)  returns 0xFFFFFFFF (0000ms, 4273ms total)
T3794 4715:560 JLINK_ReadReg(R13 (SP))  returns 0x20009800 (0000ms, 4273ms total)
T3794 4715:560 JLINK_ReadReg(R14)  returns 0xFFFFFFFF (0000ms, 4273ms total)
T3794 4715:560 JLINK_ReadReg(R15 (PC))  returns 0x200004A4 (0000ms, 4273ms total)
T3794 4715:560 JLINK_ReadReg(XPSR)  returns 0xC1000000 (0000ms, 4273ms total)
T3794 4715:560 JLINK_ReadReg(MSP)  returns 0x20009800 (0000ms, 4273ms total)
T3794 4715:560 JLINK_ReadReg(PSP)  returns 0xFFFFFFFC (0000ms, 4273ms total)
T3794 4715:560 JLINK_ReadReg(CFBP)  returns 0x00000000 (0000ms, 4273ms total)
T3794 4715:560 JLINK_ReadMemEx(0x00000002, 0x0002 Bytes, ..., Flags = 0x02000000) -- CPU_ReadMem(2 bytes @ 0x00000002) - Data: 00 20  returns 0x02 (0002ms, 4275ms total)
T3794 4715:562 JLINK_ReadMemEx(0x00000000, 0x0002 Bytes, ..., Flags = 0x02000000) -- CPU_ReadMem(2 bytes @ 0x00000000) - Data: E0 97  returns 0x02 (0001ms, 4276ms total)
T3794 4715:563 JLINK_ReadMemEx(0x00000006, 0x0002 Bytes, ..., Flags = 0x02000000) -- CPU_ReadMem(2 bytes @ 0x00000006) - Data: 00 00  returns 0x02 (0001ms, 4277ms total)
T3794 4715:564 JLINK_ReadMemEx(0x00000004, 0x0002 Bytes, ..., Flags = 0x02000000) -- CPU_ReadMem(2 bytes @ 0x00000004) - Data: C1 00  returns 0x02 (0001ms, 4278ms total)
T3794 4715:565 JLINK_ReadMemEx(0x0000000A, 0x0002 Bytes, ..., Flags = 0x02000000) -- CPU_ReadMem(2 bytes @ 0x0000000A) - Data: 00 00  returns 0x02 (0002ms, 4280ms total)
T3794 4715:567 JLINK_ReadMemEx(0x00000008, 0x0002 Bytes, ..., Flags = 0x02000000) -- CPU_ReadMem(2 bytes @ 0x00000008) - Data: 0D 01  returns 0x02 (0000ms, 4280ms total)
T3794 4715:567 JLINK_ReadMemEx(0x0000000E, 0x0002 Bytes, ..., Flags = 0x02000000) -- CPU_ReadMem(2 bytes @ 0x0000000E) - Data: 00 00  returns 0x02 (0001ms, 4281ms total)
T3794 4715:568 JLINK_ReadMemEx(0x0000000C, 0x0002 Bytes, ..., Flags = 0x02000000) -- CPU_ReadMem(2 bytes @ 0x0000000C) - Data: 0D 01  returns 0x02 (0002ms, 4283ms total)
T3794 4715:570 JLINK_ReadMemEx(0x00000012, 0x0002 Bytes, ..., Flags = 0x02000000) -- CPU_ReadMem(2 bytes @ 0x00000012) - Data: 00 00  returns 0x02 (0001ms, 4284ms total)
T3794 4715:571 JLINK_ReadMemEx(0x00000010, 0x0002 Bytes, ..., Flags = 0x02000000) -- CPU_ReadMem(2 bytes @ 0x00000010) - Data: 00 00  returns 0x02 (0001ms, 4285ms total)
T3794 4715:572 JLINK_ReadMemEx(0x00000016, 0x0002 Bytes, ..., Flags = 0x02000000) -- CPU_ReadMem(2 bytes @ 0x00000016) - Data: 00 00  returns 0x02 (0001ms, 4286ms total)
T3794 4715:573 JLINK_ReadMemEx(0x00000014, 0x0002 Bytes, ..., Flags = 0x02000000) -- CPU_ReadMem(2 bytes @ 0x00000014) - Data: 00 00  returns 0x02 (0003ms, 4289ms total)
T3794 4715:576 JLINK_ReadMemEx(0x0000001A, 0x0002 Bytes, ..., Flags = 0x02000000) -- CPU_ReadMem(2 bytes @ 0x0000001A) - Data: 00 00  returns 0x02 (0000ms, 4289ms total)
T3794 4715:576 JLINK_ReadMemEx(0x00000018, 0x0002 Bytes, ..., Flags = 0x02000000) -- CPU_ReadMem(2 bytes @ 0x00000018) - Data: 00 00  returns 0x02 (0002ms, 4291ms total)
T3794 4715:578 JLINK_ReadMemEx(0x0000001E, 0x0002 Bytes, ..., Flags = 0x02000000) -- CPU_ReadMem(2 bytes @ 0x0000001E) - Data: 00 00  returns 0x02 (0002ms, 4293ms total)
T3794 4715:580 JLINK_ReadMemEx(0x0000001C, 0x0002 Bytes, ..., Flags = 0x02000000) -- CPU_ReadMem(2 bytes @ 0x0000001C) - Data: 00 00  returns 0x02 (0000ms, 4293ms total)
T3794 4715:599 JLINK_ReadMemEx(0x200004A4, 0x003C Bytes, ..., Flags = 0x02000000) -- CPU_ReadMem(60 bytes @ 0x200004A4) - Data: 15 48 80 47 15 48 00 47 04 20 71 46 08 42 03 D0 ...  returns 0x3C (0001ms, 4294ms total)
T3370 4715:677 JLINK_ReadMemEx(0x200004A4, 0x0002 Bytes, ..., Flags = 0x02000000) -- CPU_ReadMem(2 bytes @ 0x200004A4) - Data: 15 48  returns 0x02 (0001ms, 4295ms total)
T3370 4715:678 JLINK_Go() -- CPU_ReadMem(4 bytes @ 0xE0001000) -- CPU_WriteMem(4 bytes @ 0xE0001000) -- CPU_WriteMem(4 bytes @ 0xE0001004) (0003ms, 4298ms total)
T3370 4715:783 JLINK_IsHalted()  returns FALSE (0001ms, 4299ms total)
T3370 4715:885 JLINK_IsHalted()  returns FALSE (0001ms, 4299ms total)
T3370 4715:987 JLINK_IsHalted()  returns FALSE (0001ms, 4299ms total)
T3370 4716:089 JLINK_IsHalted()  returns FALSE (0001ms, 4299ms total)
T3370 4716:191 JLINK_IsHalted()  returns FALSE (0002ms, 4300ms total)
T3370 4716:295 JLINK_IsHalted()  returns FALSE (0000ms, 4298ms total)
T3370 4716:396 JLINK_IsHalted()  returns FALSE (0001ms, 4299ms total)
T3370 4716:498 JLINK_IsHalted()  returns FALSE (0001ms, 4299ms total)
T3370 4716:600 JLINK_IsHalted()  returns FALSE (0001ms, 4299ms total)
